#Parameters = {charge_param=1e-09; time_step_stability_factor=0.5; cond=100; wakelength=6800; cpw=40}
#"Frequency / GHz"	"Z (95) [Re / Ohm]"	"Z (95) [Im / Ohm]"
#---------------------------------------------------------
0.0000000000000	-0.14017006048570	1.1464289349559e-10
0.0010239144611436	0.0041405942061215	0.59402454800737
0.0020478289222872	0.27064409479682	0.95882680689461
0.0030717433834308	0.42078953097180	1.1798405082547
0.0040956578445743	0.48778910002856	1.4626957928268
0.0051195723057179	0.64396251170186	1.7844204017416
0.0061434867668615	0.86011876668203	1.9788503752483
0.0071674012280051	0.95699380666132	2.0684852879020
0.0081913156891487	0.93328778651867	2.2417924346373
0.0092152301502923	0.97323616269373	2.5262079191281
0.010239144611436	1.1225826985714	2.7473623894800
0.011263059072579	1.2138743922551	2.8457185193884
0.012286973533723	1.1716966088690	2.9838061891625
0.013310887994867	1.1506154738324	3.2552251462859
0.014334802456010	1.2609234016194	3.5174052537041
0.015358716917154	1.3735086499900	3.6462631785534
0.016382631378297	1.3518871464885	3.7572572043363
0.017406545839441	1.2966449728530	3.9987256240922
0.018430460300585	1.3664774540185	4.2868777785528
0.019454374761728	1.4955943965396	4.4550177225409
0.020478289222872	1.5114163122881	4.5505198024401
0.021502203684015	1.4424720081607	4.7501108711489
0.022526118145159	1.4676904282664	5.0446813257408
0.023550032606302	1.5976318591284	5.2553668742374
0.024573947067446	1.6557166187234	5.3521384507548
0.025597861528590	1.5928492949664	5.5072507489901
0.026621775989733	1.5749438755591	5.7883485656101
0.027645690450877	1.6874398294825	6.0378850356886
0.028669604912020	1.7830793948544	6.1536493291628
0.029693519373164	1.7440993786312	6.2708363026500
0.030717433834308	1.6919880705596	6.5213634164338
0.031741348295451	1.7712311853763	6.7989290824436
0.032765262756595	1.8919968240011	6.9482087265789
0.033789177217738	1.8899654597494	7.0414585182780
0.034813091678882	1.8188985320271	7.2500115020560
0.035837006140025	1.8550459025897	7.5392690029766
0.036860920601169	1.9833793236098	7.7301933266906
0.037884835062313	2.0242079059823	7.8180387879666
0.038908749523456	1.9530140545486	7.9809704894093
0.039932663984600	1.9442374008282	8.2630034021225
0.040956578445743	2.0608417164076	8.4955494031843
0.041980492906887	2.1421107872244	8.5974444613697
0.043004407368031	2.0896124577107	8.7195752272739
0.044028321829174	2.0425235618214	8.9764702953551
0.045052236290318	2.1300608781694	9.2423766334894
0.046076150751461	2.2414094785044	9.3749529594538
0.047100065212605	2.2227904035766	9.4687174561064
0.048123979673749	2.1512242722881	9.6870360789291
0.049147894134892	2.1976561326388	9.9713547598812
0.050171808596036	2.3227070195117	10.145233168291
0.051195723057179	2.3465587388630	10.228380971294
0.052219637518323	2.2689606232740	10.401815775901
0.053243551979466	2.2698986638994	10.685781435007
0.054267466440610	2.3893655096413	10.903530934265
0.055291380901754	2.4559915406705	10.995794687017
0.056315295362897	2.3919057884547	11.126476178912
0.057339209824041	2.3515136856694	11.391132751086
0.058363124285184	2.4468969608196	11.646765353466
0.059387038746328	2.5482061614332	11.766122796862
0.060410953207472	2.5145344931783	11.864309586041
0.061434867668615	2.4447961502123	12.094196204062
0.062458782129759	2.5019583868313	12.374300368436
0.063482696590902	2.6229763080067	12.533542928369
0.064506611052046	2.6307212175079	12.615741319305
0.065530525513189	2.5492023143670	12.801926711430
0.066554439974333	2.5611317570909	13.088231023218
0.067578354435477	2.6828477866773	13.292499927135
0.068602268896620	2.7349679514739	13.378363399925
0.069626183357764	2.6614886006151	13.520241443819
0.070650097818907	2.6297129035041	13.793126508812
0.071674012280051	2.7327244105424	14.038897398486
0.072697926741195	2.8235212770281	14.147493549046
0.073721841202338	2.7763704579067	14.252986346868
0.074745755663482	2.7107379966650	14.495277158965
0.075769670124625	2.7789957807181	14.770999122458
0.076793584585769	2.8951587745119	14.917157333204
0.077817499046912	2.8875728173576	15.001276466567
0.078841413508056	2.8044304963794	15.201590967955
0.079865327969200	2.8283669583481	15.489871982714
0.080889242430343	2.9514902707605	15.681315643994
0.081913156891487	2.9890752493165	15.763345831581
0.082937071352630	2.9081811841216	15.918352469314
0.083960985813774	2.8866152176611	16.199282767791
0.084984900274918	2.9967131955843	16.435102889712
0.086008814736061	3.0763125607698	16.534938772509
0.087032729197205	3.0170656676391	16.650082069346
0.088056643658348	2.9575083749455	16.905067938803
0.089080558119492	3.0368630644769	17.175843714456
0.090104472580635	3.1471009836711	17.310177164863
0.091128387041779	3.1248068868708	17.398719184996
0.092152301502923	3.0420962328443	17.614094767185
0.093176215964066	3.0787006538938	17.903651790471
0.094200130425210	3.2021107931743	18.082740983303
0.095224044886353	3.2250013623392	18.163288410284
0.096247959347497	3.1385128489939	18.333010048515
0.097271873808641	3.1284442446764	18.621493808330
0.098295788269784	3.2447890304541	18.847141520838
0.099319702730928	3.3123758196085	18.940121332388
0.10034361719207	3.2423336510394	19.067019186165
0.10136753165321	3.1905923232004	19.334705210668
0.10239144611436	3.2807468927636	19.599845299437
0.10341536057550	3.3838377439752	19.723595414011
0.10443927503665	3.3474265260659	19.818927188917
0.10546318949779	3.2670634532137	20.050042146769
0.10648710395893	3.3167222413018	20.340029500559
0.10751101842008	3.4391135239160	20.507252907277
0.10853493288122	3.4471359937122	20.588629620608
0.10955884734236	3.3568202177566	20.774449469822
0.11058276180351	3.3593120329565	21.069822883335
0.11160667626465	3.4808483185669	21.285091083060
0.11263059072579	3.5355777016246	21.373157524273
0.11365450518694	3.4560558139276	21.513779797874
0.11467841964808	3.4137175191440	21.793981654469
0.11570233410923	3.5141451083279	22.052778010971
0.11672624857037	3.6087977974441	22.167272455787
0.11775016303151	3.5589141817657	22.271707154582
0.11877407749266	3.4827424845816	22.519054716377
0.11979799195380	3.5456234876785	22.808558974066
0.12082190641494	3.6655710010091	22.964504240534
0.12184582087609	3.6586099869575	23.049048188902
0.12286973533723	3.5662400223456	23.252195759020
0.12389364979837	3.5821755451838	23.553678190339
0.12491756425952	3.7076828146428	23.758437753547
0.12594147872066	3.7487402354398	23.843624903700
0.12696539318180	3.6611202467004	23.999844335952
0.12798930764295	3.6296538745094	24.292227377830
0.12901322210409	3.7396342502685	24.544003397682
0.13003713656524	3.8245360340105	24.650701697605
0.13106105102638	3.7619226283377	24.766529005341
0.13208496548752	3.6917425263476	25.030445496631
0.13310887994867	3.7678198597847	25.318525390272
0.13413279440981	3.8838153000601	25.463920596087
0.13515670887095	3.8618518652511	25.554023331121
0.13618062333210	3.7692309868274	25.775595720887
0.13720453779324	3.7993298373180	26.082321597440
0.13822845225438	3.9274477114801	26.276560313178
0.13925236671553	3.9540818036896	26.361022155379
0.14027628117667	3.8598344721879	26.534632497027
0.14130019563781	3.8406022382250	26.838736904278
0.14232411009896	3.9592388751234	27.082883241821
0.14334802456010	4.0330834999035	27.183406686943
0.14437193902125	3.9586041107262	27.312909625048
0.14539585348239	3.8961818547073	27.593593273603
0.14641976794353	3.9852457617782	27.879311057840
0.14744368240468	4.0957195813238	28.015056062921
0.14846759686582	4.0588545548669	28.113180847465
0.14949151132696	3.9678264425329	28.354157248976
0.15051542578811	4.0126496951256	28.665202215010
0.15153934024925	4.1418940036944	28.849056276316
0.15256325471039	4.1534390598619	28.935086890334
0.15358716917154	4.0541360141982	29.127814506706
0.15461108363268	4.0483951361277	29.443075732389
0.15563499809382	4.1746242030300	29.679081005622
0.15665891255497	4.2361315837837	29.775236644508
0.15768282701611	4.1507851498018	29.920703667935
0.15870674147726	4.0978542500509	30.218230615720
0.15973065593840	4.1995146029996	30.500680734101
0.16075457039954	4.3028521997665	30.627874596074
0.16177848486069	4.2513223870876	30.736570623984
0.16280239932183	4.1637739602395	30.997824626323
0.16382631378297	4.2237232585229	31.312230665381
0.16485022824412	4.3524972578166	31.486014819959
0.16587414270526	4.3483907264144	31.576066975429
0.16689805716640	4.2457111456085	31.789581749589
0.16792197162755	4.2546116106933	32.115351173395
0.16894588608869	4.3872084346350	32.342832488937
0.16996980054984	4.4351420200498	32.436635981265
0.17099371501098	4.3400736678077	32.600371857042
0.17201762947212	4.2983332813955	32.914711666860
0.17304154393327	4.4120210273233	33.193049209360
0.17406545839441	4.5065774038125	33.313016975238
0.17508937285555	4.4407701617975	33.434932657991
0.17611328731670	4.3586327168553	33.717243799901
0.17713720177784	4.4339480397089	34.034043701822
0.17816111623898	4.5605525106331	34.198280381682
0.17918503070013	4.5403510558280	34.294982769886
0.18020894516127	4.4360864463528	34.530907827226
0.18123285962241	4.4606667957032	34.866472670797
0.18225677408356	4.5982505100155	35.085205597922
0.18328068854470	4.6314327904369	35.178903503367
0.18430460300585	4.5279427843068	35.363239828722
0.18532851746699	4.4990539380290	35.694271095884
0.18635243192813	4.6240206181829	35.967740712287
0.18737634638928	4.7081333010940	36.082060733425
0.18840026085042	4.6285992832893	36.219957610167
0.18942417531156	4.5538477208146	36.524023990422
0.19044808977271	4.6446035723909	36.842267407455
0.19147200423385	4.7672459648571	36.997717558888
0.19249591869499	4.7306408921897	37.103893365058
0.19351983315614	4.6266989858992	37.363815895236
0.19454374761728	4.6678809117199	37.708420565679
0.19556766207842	4.8089181516577	37.918371087228
0.19659157653957	4.8262458102077	38.014465207145
0.19761549100071	4.7157983908845	38.221772591102
0.19863940546186	4.7013798547556	38.569300048537
0.19966331992300	4.8366967030128	38.837266629582
0.20068723438414	4.9086986336400	38.947799712794
0.20171114884529	4.8161646747569	39.104567653269
0.20273506330643	4.7508162217009	39.431019376461
0.20375897776757	4.8569164720149	39.749800157164
0.20478289222872	4.9737186461405	39.897496276038
0.20580680668986	4.9205504944497	40.016184318277
0.20683072115100	4.8189585053501	40.301668722778
0.20785463561215	4.8775404817457	40.654538546205
0.20887855007329	5.0203481269262	40.855897930193
0.20990246453443	5.0208067482522	40.957172673754
0.21092637899558	4.9050385268254	41.189875406768
0.21195029345672	4.9066613480965	41.553649489335
0.21297420791787	5.0512164747837	41.815632445780
0.21399812237901	5.1094477090865	41.924555775419
0.21502203684015	5.0048296275159	42.103232935061
0.21604595130130	4.9509426399791	42.452649755388
0.21706986576244	5.0721151347764	42.771137713992
0.21809378022358	5.1811214189418	42.912421947512
0.21911769468473	5.1113959157516	43.046902468820
0.22014160914587	5.0143050740505	43.359506947013
0.22116552360701	5.0909560394540	43.719875144427
0.22218943806816	5.2337035501521	43.913099233164
0.22321335252930	5.2163829453864	44.022654085751
0.22423726699045	5.0971127063163	44.283249094203
0.22526118145159	5.1162955024788	44.662988979447
0.22628509591273	5.2687910830414	44.918700519578
0.22730901037388	5.3116110348180	45.028546182957
0.22833292483502	5.1960275796785	45.232342715994
0.22935683929616	5.1557003669566	45.605274334150
0.23038075375731	5.2914897309998	45.922750421106
0.23140466821845	5.3906730211329	46.059317978274
0.23242858267959	5.3045762976851	46.213144312930
0.23345249714074	5.2142657242813	46.554442519978
0.23447641160188	5.3095167723457	46.921582595408
0.23550032606302	5.4502263641672	47.107438512180
0.23652424052417	5.4143355805361	47.228728933817
0.23754815498531	5.2935749621499	47.519811904984
0.23857206944646	5.3317788967108	47.915234753336
0.23959598390760	5.4907268013200	48.164625835234
0.24061989836874	5.5165261587951	48.278328904443
0.24164381282989	5.3913146518487	48.510659711402
0.24266772729103	5.3666857906049	48.907653491862
0.24369164175217	5.5164462503853	49.223552839026
0.24471555621332	5.6037146925967	49.357505164552
0.24573947067446	5.5016314066368	49.534545026264
0.24676338513560	5.4205153774144	49.906155002566
0.24778729959675	5.5347527776601	50.279419466181
0.24881121405789	5.6712998193004	50.459040320908
0.24983512851903	5.6161837778887	50.595927604633
0.25085904298018	5.4961503397228	50.920226485079
0.25188295744132	5.5547744430232	51.331083006026
0.25290687190247	5.7184903810064	51.574397670185
0.25393078636361	5.7257029673290	51.695354982509
0.25495470082475	5.5924370465991	51.959882208839
0.25597861528590	5.5856867348785	52.381518557126
0.25700252974704	5.7485733576772	52.695482239775
0.25802644420818	5.8217758358736	52.829391945561
0.25905035866933	5.7043088545542	53.033880685142
0.26007427313047	5.6349457241728	53.437503229282
0.26109818759161	5.7684025168827	53.816371699116
0.26212210205276	5.8985135365124	53.991324307654
0.26314601651390	5.8236704564581	54.148140511683
0.26416993097504	5.7068037826920	54.508561747739
0.26519384543619	5.7871810887363	54.934682501844
0.26621775989733	5.9537771565552	55.172525426645
0.26724167435848	5.9408923126308	55.304670767985
0.26826558881962	5.8014035676755	55.605361329074
0.26928950328076	5.8147577399563	56.052300842796
0.27031341774191	5.9897167800074	56.364240472199
0.27133733220305	6.0466478368941	56.501233278260
0.27236124666419	5.9146412934848	56.737844771736
0.27338516112534	5.8597466132397	57.175316076702
0.27440907558648	6.0124949205395	57.559457009317
0.27543299004762	6.1337452446479	57.731827248271
0.27645690450877	6.0388476977646	57.913459763022
0.27748081896991	5.9278316902546	58.313150610653
0.27850473343106	6.0312282035406	58.754505475079
0.27952864789220	6.1986047225858	58.987925805164
0.28055256235334	6.1641813685761	59.135825363385
0.28157647681449	6.0205864897185	59.477026870270
0.28260039127563	6.0563243647155	59.950071987422
0.28362430573677	6.2420821697067	60.260250857299
0.28464822019792	6.2804864618610	60.404109820451
0.28567213465906	6.1350539135883	60.678049832581
0.28669604912020	6.0975191506324	61.151411274120
0.28771996358135	6.2694622086684	61.540759875507
0.28874387804249	6.3792708502926	61.713260286102
0.28976779250363	6.2641889813484	61.925262280243
0.29079170696478	6.1619795819553	62.367695048325
0.29181562142592	6.2895940670811	62.824471660084
0.29283953588707	6.4554278149921	63.055071175012
0.29386345034821	6.3981091690007	63.224049635758
0.29488736480935	6.2528442647058	63.610594499473
0.29591127927050	6.3133110680659	64.110773326902
0.29693519373164	6.5083614939401	64.419911746183
0.29795910819278	6.5259374708476	64.575213306600
0.29898302265393	6.3684964123461	64.892345556409
0.30000693711507	6.3514149871422	65.403939920172
0.30103085157621	6.5422795132353	65.798801834251
0.30205476603736	6.6379023231042	65.974913188691
0.30307868049850	6.5027330262178	66.223652214858
0.30410259495964	6.4125967787934	66.712740286447
0.30512650942079	6.5655650977898	67.185449308648
0.30615042388193	6.7272957467331	67.415523947154
0.30717433834308	6.6458274586007	67.611831959175
0.30819825280422	6.5016938206787	68.049179394587
0.30922216726536	6.5893216162566	68.577859805666
0.31024608172651	6.7919126388357	68.887274237895
0.31126999618765	6.7863173048182	69.059568665256
0.31229391064879	6.6186352391387	69.426585651079
0.31331782510994	6.6253411894833	69.979188310895
0.31434173957108	6.8346717629520	70.380376662241
0.31536565403222	6.9131926864595	70.564534201386
0.31638956849337	6.7582967895935	70.857391663431
0.31741348295451	6.6838637187901	71.397648004467
0.31843739741565	6.8632685004037	71.887264450156
0.31946131187680	7.0180814653617	72.119991292059
0.32048522633794	6.9113332747897	72.351029665251
0.32150914079909	6.7715575042649	72.845459614412
0.32253305526023	6.8888950799857	73.404504765565
0.32355696972137	7.0970111550620	73.716293822883
0.32458088418252	7.0658623760628	73.912348370302
0.32560479864366	6.8901146979351	74.337007007894
0.32662871310480	6.9242351015974	74.934009918670
0.32765262756595	7.1513885823557	75.343034140701
0.32867654202709	7.2097066592552	75.540881899859
0.32970045648823	7.0357564533362	75.886529403254
0.33072437094938	6.9810925574095	76.483290561229
0.33174828541052	7.1879804886598	76.991452221172
0.33277219987167	7.3327858587678	77.231147333951
0.33379611433281	7.1997804976836	77.505778241366
0.33482002879395	7.0680983943676	78.064665658869
0.33584394325510	7.2178590414127	78.656654923309
0.33686785771624	7.4292044054932	78.973957469503
0.33789177217738	7.3700879129849	79.202092016006
0.33891568663853	7.1889405768950	79.693542419882
0.33993960109967	7.2544743942780	80.339212634810
0.34096351556081	7.4986200443598	80.758539640265
0.34198743002196	7.5334350299071	80.977279918267
0.34301134448310	7.3414802398753	81.386062973524
0.34403525894424	7.3111905910314	82.045804117129
0.34505917340539	7.5466023049364	82.575089186677
0.34608308786653	7.6780090380673	82.827564314721
0.34710700232768	7.5179610643906	83.156544331647
0.34813091678882	7.3987332412121	83.788746280552
0.34915483124996	7.5838640245074	84.417289051225
0.35017874571111	7.7958420023341	84.744646951656
0.35120266017225	7.7063193532331	85.015205953264
0.35222657463339	7.5230415358369	85.584459950821
0.35325048909454	7.6244717371338	86.284313527259
0.35427440355568	7.8845965278812	86.717743000885
0.35529831801682	7.8923914109120	86.966633698639
0.35632223247797	7.6839520183083	87.451121178348
0.35734614693911	7.6833291392720	88.181913806702
0.35837006140025	7.9483494494799	88.736244919056
0.35939397586140	8.0626365482926	89.009319566772
0.36041789032254	7.8750111905917	89.405921135800
0.36144180478369	7.7733914872009	90.122338397807
0.36246571924483	7.9971810786671	90.792532670805
0.36348963370597	8.2068753469543	91.136414744777
0.36451354816712	8.0845012205444	91.462445574210
0.36553746262826	7.9031291557666	92.123055688295
0.36656137708940	8.0455897631801	92.884406194372
0.36758529155055	8.3205165101702	93.337619008044
0.36860920601169	8.2975400364443	93.628694099090
0.36963312047283	8.0747423346633	94.204477612734
0.37065703493398	8.1099839474401	95.016664080719
0.37168094939512	8.4058238846918	95.601906465310
0.37270486385627	8.4989081894541	95.906158302440
0.37372877831741	8.2835099820113	96.387080089182
0.37475269277855	8.2056915337666	97.201489710951
0.37577660723970	8.4719351291427	97.920610800776
0.37680052170084	8.6760956599242	98.290193868681
0.37782443616198	8.5184528946955	98.688450506183
0.37884835062313	8.3440347292738	99.457520787339
0.37987226508427	8.5335647273582	100.29030728147
0.38089617954541	8.8219950024975	100.77169290729
0.38192009400656	8.7642511210767	101.12083795560
0.38294400846770	8.5300362189212	101.80772703643
0.38396792292884	8.6085746234019	102.71494247809
0.38499183738999	8.9367091543282	103.33981778356
0.38601575185113	9.0041178353747	103.68971729189
0.38703966631228	8.7612361166593	104.27645528482
0.38806358077342	8.7148268834174	105.20677603877
0.38908749523456	9.0280879638299	105.98533701379
0.39011140969571	9.2231330516223	106.39370203281
0.39113532415685	9.0279034952633	106.88617059052
0.39215923861799	8.8668765046563	107.78590189077
0.39318315307914	9.1108149933849	108.70397456165
0.39420706754028	9.4114190029999	109.22591936688
0.39523098200142	9.3146778335716	109.65452803643
0.39625489646257	9.0731342494742	110.47839122697
0.39727881092371	9.2041508659339	111.49915889132
0.39830272538485	9.5665557193286	112.17668648821
0.39932663984600	9.6034198607320	112.59236868989
0.40035055430714	9.3340770650366	113.31334623111
0.40137446876829	9.3286910533249	114.38362362616
