#Parameters = {charge_param=1e-09; time_step_stability_factor=0.5; cond=100; wakelength=2540; cpw=40}
#"Frequency / GHz"	"Z (93) [Re / Ohm]"	"Z (93) [Im / Ohm]"
#---------------------------------------------------------
0.0000000000000	2.4630293987802	1.2040288640713e-10
0.0010239144611436	2.1450684446454	-0.82104826553421
0.0020478289222872	1.2880736109370	-1.3013797859577
0.0030717433834308	0.15416112218573	-1.2016915366307
0.0040956578445743	-0.90662066887007	-0.45576564635370
0.0051195723057179	-1.5597265998727	0.80866168874035
0.0061434867668615	-1.5854112490162	2.3060589869739
0.0071674012280051	-0.94477157889075	3.6758453529916
0.0081913156891487	0.20691685368102	4.5876440317358
0.0092152301502923	1.5636687765415	4.8383316122649
0.010239144611436	2.7565852839655	4.4124861629358
0.011263059072579	3.4605291611409	3.4884384306124
0.012286973533723	3.4886522226891	2.3879406807523
0.013310887994867	2.8471961312563	1.4838912374533
0.014334802456010	1.7344761383058	1.0928081873615
0.015358716917154	0.48415466808893	1.3832582759916
0.016382631378297	-0.53088629657370	2.3268897438612
0.017406545839441	-1.0062717164798	3.7064002140730
0.018430460300585	-0.79422275070110	5.1782612435099
0.019454374761728	0.053589370911609	6.3721125460211
0.020478289222872	1.3009367304391	6.9980563775323
0.021502203684015	2.5954436486804	6.9307390584448
0.022526118145159	3.5707378148360	6.2457959895981
0.023550032606302	3.9527474351590	5.1980288974551
0.024573947067446	3.6393056197311	4.1475831677300
0.025597861528590	2.7299334735841	3.4554948899402
0.026621775989733	1.4971088669152	3.3788933156292
0.027645690450877	0.30730480027404	3.9962777232133
0.028669604912020	-0.48532743066210	5.1845888473513
0.029693519373164	-0.64178951063754	6.6547798431819
0.030717433834308	-0.10772195915658	8.0356133564147
0.031741348295451	0.97066280439255	8.9813979368710
0.032765262756595	2.2888770299988	9.2724014784904
0.033789177217738	3.4724558764183	8.8787749412602
0.034813091678882	4.1856580853040	7.9693874834329
0.035837006140025	4.2290191068436	6.8629543024707
0.036860920601169	3.5974126132458	5.9355957571982
0.037884835062313	2.4817176252739	5.5116347813843
0.038908749523456	1.2135510326689	5.7693354644808
0.039932663984600	0.16906206461324	6.6889786168129
0.040956578445743	-0.34030662440765	8.0584011195767
0.041980492906887	-0.15837099673732	9.5344497424195
0.043004407368031	0.67025526643672	10.742555781936
0.044028321829174	1.9129132122862	11.385543290072
0.045052236290318	3.2163017667492	11.330069090294
0.046076150751461	4.2090096370894	10.645555401901
0.047100065212605	4.6094257585563	9.5842491002806
0.048123979673749	4.3076806253901	8.5081330332913
0.049147894134892	3.3977786331141	7.7838632956577
0.050171808596036	2.1505246186571	7.6762220173791
0.051195723057179	0.93503879011322	8.2710441178920
0.052219637518323	0.11160230469086	9.4500512586275
0.053243551979466	-0.073064797581581	10.924972198427
0.054267466440610	0.44234198428667	12.321111125532
0.055291380901754	1.5156495465440	13.286143833851
0.056315295362897	2.8422588306792	13.592558153705
0.057339209824041	4.0434606709674	13.203958850169
0.058363124285184	4.7764148376049	12.285916852167
0.059387038746328	4.8338596347758	11.158131182510
0.060410953207472	4.2045579814998	10.201722591076
0.061434867668615	3.0768542713854	9.7485376199774
0.062458782129759	1.7842235223418	9.9846099140967
0.063482696590902	0.70855138813923	10.895859554834
0.064506611052046	0.16919260078191	12.271878379108
0.065530525513189	0.33003242681055	13.766791795624
0.066554439974333	1.1515941731504	14.999596996784
0.067578354435477	2.4021865388764	15.664875375396
0.068602268896620	3.7249471619889	15.621714195554
0.069626183357764	4.7413866892677	14.934953049653
0.070650097818907	5.1613956765948	13.856684695702
0.071674012280051	4.8677468724665	12.753285575803
0.072697926741195	3.9504837067974	11.999093611515
0.073721841202338	2.6811097033675	11.867582894231
0.074745755663482	1.4339745343882	12.451667409355
0.075769670124625	0.57761515988802	13.636355529346
0.076793584585769	0.36758602625670	15.131801459964
0.077817499046912	0.87193794782370	16.557257446951
0.078841413508056	1.9510728361216	17.551615677519
0.079865327969200	3.2979353931820	17.878452633156
0.080889242430343	4.5269737189432	17.495024857515
0.081913156891487	5.2861002078322	16.565085211260
0.082937071352630	5.3591463363210	15.411681316844
0.083960985813774	4.7290033017566	14.423538877712
0.084984900274918	3.5830096046076	13.942154485644
0.086008814736061	2.2588994410609	14.162386828888
0.087032729197205	1.1469034953375	15.075479127260
0.088056643658348	0.57637501319932	16.471170180616
0.089080558119492	0.71987393145167	17.998407221356
0.090104472580635	1.5426371718064	19.267134185113
0.091128387041779	2.8122281268126	19.961647741153
0.092152301502923	4.1656935033597	19.932584588645
0.093176215964066	5.2148286693755	19.240742904357
0.094200130425210	5.6590279272660	18.139885088000
0.095224044886353	5.3729206048598	17.003381952377
0.096247959347497	4.4432493862199	16.215899322314
0.097271873808641	3.1441466602161	16.061542732533
0.098295788269784	1.8578517702250	16.640980421118
0.099319702730928	0.96379406712923	17.841716344024
0.10034361719207	0.72822126313554	19.370288012010
0.10136753165321	1.2264729580081	20.837178007857
0.10239144611436	2.3205856059199	21.869876079945
0.10341536057550	3.6988814680935	22.221280854462
0.10443927503665	4.9661855347820	21.841902373225
0.10546318949779	5.7585621364642	20.894773072963
0.10648710395893	5.8492647354738	19.708581540136
0.10751101842008	5.2150607344870	18.682497666782
0.10853493288122	4.0435355976476	18.170242652491
0.10955884734236	2.6790936774502	18.377066935648
0.11058276180351	1.5231958937259	19.299635782618
0.11160667626465	0.91772620865835	20.726424829835
0.11263059072579	1.0453650192818	22.298677591856
0.11365450518694	1.8759952418649	23.614363089579
0.11467841964808	3.1748597273885	24.345016120324
0.11570233410923	4.5702727103766	24.331510584224
0.11672624857037	5.6613601785346	23.630846744270
0.11775016303151	6.1346050318962	22.500200803896
0.11877407749266	5.8553210620071	21.322693167538
0.11979799195380	4.9073726263613	20.496296872724
0.12082190641494	3.5694315385355	20.318092585245
0.12184582087609	2.2344872927423	20.897526465736
0.12286973533723	1.2958533233241	22.123992561489
0.12389364979837	1.0327284748254	23.698336558269
0.12491756425952	1.5286038689086	25.219313485538
0.12594147872066	2.6463542624218	26.300018684465
0.12696539318180	4.0674385106899	26.680514188826
0.12798930764295	5.3840081057435	26.303872776994
0.12901322210409	6.2172961423084	25.333399364041
0.13003713656524	6.3279284612974	24.105829682896
0.13106105102638	5.6860372987974	23.033914030290
0.13208496548752	4.4806467053450	22.486562111865
0.13310887994867	3.0653980816213	22.681345687378
0.13413279440981	1.8561942768817	23.620676250658
0.13515670887095	1.2103808715205	25.090373894352
0.13618062333210	1.3225546754300	26.721255536453
0.13720453779324	2.1673716906242	28.096038613052
0.13822845225438	3.5061574114140	28.870611726498
0.13925236671553	4.9556180547103	28.874436655551
0.14027628117667	6.0988776601123	28.160794636068
0.14130019563781	6.6066818938040	26.992079272855
0.14232411009896	6.3335372839439	25.764184022431
0.14334802456010	5.3607211899135	24.891767240378
0.14437193902125	3.9734549061893	24.687639230724
0.14539585348239	2.5786420044543	25.271346799515
0.14641976794353	1.5868908114003	26.533663864125
0.14744368240468	1.2930196107530	28.167528417248
0.14846759686582	1.7898118443672	29.756671388055
0.14949151132696	2.9402439937723	30.896363245425
0.15051542578811	4.4164897985882	31.311262023904
0.15153934024925	5.7946053450745	30.936056622761
0.15256325471039	6.6775546608418	29.935293728631
0.15358716917154	6.8108830258794	28.656382424192
0.15461108363268	6.1573457400295	27.529192019630
0.15563499809382	4.9086118047759	26.941252473611
0.15665891255497	3.4303867894263	27.124781045466
0.15768282701611	2.1566599276169	28.088461497071
0.15870674147726	1.4636487271888	29.614010800678
0.15973065593840	1.5600461116740	31.318795268754
0.16075457039954	2.4255797148345	32.766541726410
0.16177848486069	3.8159643135536	33.594119186250
0.16280239932183	5.3330810442582	33.617557442251
0.16382631378297	6.5402294397430	32.886358533512
0.16485022824412	7.0890963837743	31.670075874883
0.16587414270526	6.8215354444513	30.380780750713
0.16689805716640	5.8164245201538	29.453710469543
0.16792197162755	4.3677271527878	29.220658681050
0.16894588608869	2.8998460231392	29.812929495835
0.16996980054984	1.8446346215411	31.122232126839
0.17099371501098	1.5156989556735	32.831152843256
0.17201762947212	2.0165665064293	34.504641195268
0.17304154393327	3.2096040628773	35.716150707504
0.17406545839441	4.7550039760597	36.171870109842
0.17508937285555	6.2088054669786	35.796872952819
0.17611328731670	7.1516843342558	34.757934609300
0.17713720177784	7.3111599566281	33.416085471875
0.17816111623898	6.6416136313124	32.222389807332
0.17918503070013	5.3386286686167	31.587027959452
0.18020894516127	3.7831718267208	31.759670149710
0.18123285962241	2.4315373194391	32.756020597396
0.18225677408356	1.6828376943983	34.352134646334
0.18328068854470	1.7625123105004	36.148485135826
0.18430460300585	2.6558445527687	37.685459478008
0.18532851746699	4.1110839595235	38.576909306223
0.18635243192813	5.7116012595066	38.622958270320
0.18737634638928	6.9964050913297	37.869123461768
0.18840026085042	7.5941692282555	36.594274043860
0.18942417531156	7.3318145528564	35.230581755791
0.19044808977271	6.2859050008895	34.238432471748
0.19147200423385	4.7616071438260	33.972494550499
0.19249591869499	3.2049752734367	34.577895676436
0.19351983315614	2.0737643288604	35.946890657774
0.19454374761728	1.7041751623780	37.748945463364
0.19556766207842	2.2123119581116	39.525854041947
0.19659157653957	3.4592245266567	40.824527177819
0.19761549100071	5.0900446177182	41.328982835854
0.19863940546186	6.6362071339509	40.953099755762
0.19966331992300	7.6513216729422	39.866918981146
0.20068723438414	7.8413069903051	38.448483091439
0.20171114884529	7.1508626545736	37.174841484775
0.20273506330643	5.7808632860319	36.483635878156
0.20375897776757	4.1312380766861	36.645415079861
0.20478289222872	2.6855661107706	37.683920684285
0.20580680668986	1.8706775621613	39.367819259858
0.20683072115100	1.9320107244912	41.276680544504
0.20785463561215	2.8611108738648	42.922396746886
0.20887855007329	4.3966747246517	43.890989859348
0.20990246453443	6.0992468874398	43.963621895860
0.21092637899558	7.4782276262052	43.181448642139
0.21195029345672	8.1344976287301	41.835111603182
0.21297420791787	7.8772098291101	40.381500264448
0.21399812237901	6.7805851149772	39.311611770118
0.21502203684015	5.1638249815483	39.007713046863
0.21604595130130	3.4995469705683	39.631346024979
0.21706986576244	2.2769961871270	41.074975147844
0.21809378022358	1.8596099357754	42.991733056058
0.21911769468473	2.3783892882278	44.895060209582
0.22014160914587	3.6923476452301	46.299629940436
0.22116552360701	5.4279562450073	46.862756514227
0.22218943806816	7.0865700908647	46.485099504137
0.22321335252930	8.1889522319202	45.341085463431
0.22423726699045	8.4150227218889	43.829759451070
0.22526118145159	7.6980950790911	42.459898103799
0.22628509591273	6.2458703195933	41.702447663045
0.22730901037388	4.4816213918827	41.853070704483
0.22833292483502	2.9222065318716	42.944905331834
0.22935683929616	2.0280536703291	44.737264171160
0.23038075375731	2.0686419500845	46.784041577651
0.23140466821845	3.0427659613825	48.562403430927
0.23242858267959	4.6771591080808	49.624651488488
0.23345249714074	6.5043770032215	49.729167776257
0.23447641160188	7.9977593933089	48.912156478142
0.23550032606302	8.7245194824713	47.478900357579
0.23652424052417	8.4724770715276	45.916556922300
0.23754815498531	7.3133404667336	44.753388881052
0.23857206944646	5.5836837229111	44.405090614803
0.23959598390760	3.7886185824209	45.052898912965
0.24061989836874	2.4557142230743	46.589212281936
0.24164381282989	1.9813952277262	48.647013694322
0.24266772729103	2.5145218754809	50.705086152209
0.24369164175217	3.9113249463603	52.238875542929
0.24471555621332	5.7753099579556	52.873352644394
0.24573947067446	7.5710830924647	52.493346959677
0.24676338513560	8.7794386908735	51.278911119259
0.24778729959675	9.0488020801042	49.654894026810
0.24881121405789	8.2988730067853	48.168821881767
0.24983512851903	6.7459349002050	47.332172405787
0.25085904298018	4.8419055722416	47.471038693294
0.25188295744132	3.1442823075776	48.629766467160
0.25290687190247	2.1543909852336	50.556021439002
0.25393078636361	2.1708501126591	52.772218753355
0.25495470082475	3.2010623874376	54.713117403293
0.25597861528590	4.9569454725921	55.889957906279
0.25700252974704	6.9367564554827	56.033500963197
0.25802644420818	8.5697906747458	55.174127056296
0.25905035866933	9.3822445541597	53.635191895977
0.26007427313047	9.1360586641153	51.940935462029
0.26109818759161	7.9000754254951	50.665151737388
0.26212210205276	6.0322685012741	50.264283765464
0.26314601651390	4.0775576730297	50.943473133318
0.26416993097504	2.6103570655347	52.594853349846
0.26519384543619	2.0673305365624	54.826619123894
0.26621775989733	2.6190267645996	57.075089181959
0.26724167435848	4.1181066884283	58.767733705452
0.26826558881962	6.1398429372956	59.490038877362
0.26928950328076	8.1037995667523	59.107599579950
0.27031341774191	9.4418545775614	57.807503409705
0.27133733220305	9.7639495835783	56.046312094149
0.27236124666419	8.9732327334051	54.419069935291
0.27338516112534	7.2966304386960	53.486900188831
0.27440907558648	5.2212643671083	53.613117863295
0.27543299004762	3.3544973689989	54.855702451771
0.27645690450877	2.2477946799935	56.947929279047
0.27748081896991	2.2354571636533	59.373517321689
0.27850473343106	3.3353612522653	61.515152526199
0.27952864789220	5.2411490693068	62.833685476061
0.28055256235334	7.4088955491186	63.026011784399
0.28157647681449	9.2137641525898	62.115430333501
0.28260039127563	10.131558415477	60.447575813427
0.28362430573677	9.8924446376819	58.592324595347
0.28464822019792	8.5617932703840	57.179486484084
0.28567213465906	6.5239546718702	56.715631114344
0.28669604912020	4.3728778062560	57.435297106428
0.28771996358135	2.7406716600769	59.230260340695
0.28874387804249	2.1135662965826	61.678153384750
0.28976779250363	2.6888281400387	64.162945945046
0.29079170696478	4.3147058821057	66.052950068676
0.29181562142592	6.5316406270569	66.884944869652
0.29283953588707	8.7036087744021	66.500783379142
0.29386345034821	10.202089565293	65.096228440944
0.29488736480935	10.589475344908	63.167000879131
0.29591127927050	9.7484341063443	61.366859936762
0.29693519373164	7.9190165743694	60.318317079382
0.29795910819278	5.6318578981821	60.430758825453
0.29898302265393	3.5560164097507	61.779086836505
0.30000693711507	2.3050506321527	64.078817766895
0.30103085157621	2.2575098329809	66.765785112700
0.30205476603736	3.4443241305809	69.158157788539
0.30307868049850	5.5365544315145	70.654281266839
0.30410259495964	7.9380057559283	70.908971116431
0.30512650942079	9.9566695191804	69.936639267799
0.30615042388193	11.005728901658	68.110488189848
0.30717433834308	10.775777294838	66.057028544835
0.30819825280422	9.3277439560616	64.475695873734
0.30922216726536	7.0786662057337	63.935468487959
0.31024608172651	4.6834320701317	64.707591622236
0.31126999618765	2.8459872768242	66.683549831737
0.31229391064879	2.1143956703151	69.403040842726
0.31331782510994	2.7193790575772	72.184861288240
0.31434173957108	4.5038626670127	74.323529863826
0.31536565403222	6.9649748641831	75.294935245056
0.31638956849337	9.3973610828611	74.911104630617
0.31741348295451	11.097010044117	73.378435484403
0.31843739741565	11.566733021682	71.241436487679
0.31946131187680	10.663364882794	69.227239888614
0.32048522633794	8.6431514219491	68.035246013565
0.32150914079909	6.0910459036567	68.132715272514
0.32253305526023	3.7533570958949	69.616007519550
0.32355696972137	2.3215840489573	72.178629719540
0.32458088418252	2.2300053264266	75.196518499337
0.32560479864366	3.5262256861508	77.906891546606
0.32662871310480	5.8532154872862	79.629458332428
0.32765262756595	8.5492547504853	79.965886712970
0.32867654202709	10.837863241899	78.919090961527
0.32970045648823	12.053248996597	76.896680472783
0.33072437094938	11.835865310926	74.596325758971
0.33174828541052	10.240687517990	72.805226466284
0.33277219987167	7.7256689802047	72.171274787694
0.33379611433281	5.0224443266592	73.012389364419
0.33482002879395	2.9257284620781	75.220080591641
0.33584394325510	2.0619821541289	78.286426073473
0.33686785771624	2.7046312405965	81.447945734759
0.33789177217738	4.6902865615596	83.905682817181
0.33891568663853	7.4615448399873	85.058106967368
0.33993960109967	10.225299057152	84.679004905296
0.34096351556081	12.181654521681	82.987814665853
0.34198743002196	12.757434333944	80.590652595832
0.34301134448310	11.776167550663	78.307770719165
0.34403525894424	9.5142108665756	76.936506039846
0.34505917340539	6.6253065784619	77.018174162713
0.34608308786653	3.9540717831367	78.677000550955
0.34710700232768	2.2915684993211	81.578950445055
0.34813091678882	2.1436309368038	85.023884515137
0.34915483124996	3.5797345925507	88.145711494337
0.35017874571111	6.2074859462519	90.163387327404
0.35120266017225	9.2816815716411	90.610088650801
0.35222657463339	11.917713043950	89.473388927196
0.35325048909454	13.348271716631	87.204434700792
0.35427440355568	13.148928541402	84.591850132960
0.35529831801682	11.366343086489	82.535533321409
0.35632223247797	8.5104684565464	81.785162267786
0.35734614693911	5.4113457167767	82.719329455863
0.35837006140025	2.9806195438445	85.230304421890
0.35939397586140	1.9462229732671	88.749397261263
0.36041789032254	2.6373709322684	92.407286684215
0.36144180478369	4.8832877342120	95.284201628235
0.36246571924483	8.0566927987130	96.678039062117
0.36348963370597	11.251200072645	96.312345557978
0.36451354816712	13.542547703741	94.422645795124
0.36553746262826	14.258450322358	91.694327038130
0.36656137708940	13.178370993047	89.068284762615
0.36758529155055	10.603944125692	87.469360103248
0.36860920601169	7.2777717006620	87.535869029147
0.36963312047283	4.1722974598983	89.429240639239
0.37065703493398	2.2086927944948	92.780440486809
0.37168094939512	1.9869296117480	96.790668805059
0.37270486385627	3.6060425456448	100.45900518045
0.37372877831741	6.6283148354357	102.87222649415
0.37475269277855	10.199821977517	103.47298324679
0.37577660723970	13.294271889832	102.22768938903
0.37680052170084	15.010612472632	99.643685012918
0.37782443616198	14.838206744610	96.628554165132
0.37884835062313	12.811643124335	94.230484746536
0.37987226508427	9.5083884869900	93.333851690989
0.38089617954541	5.8877349099590	94.398334656635
0.38192009400656	3.0158287856671	97.318423245162
0.38294400846770	1.7554909496667	101.44609756662
0.38396792292884	2.5109581475146	105.77242152738
0.38499183738999	5.1029409829187	109.21730007992
0.38601575185113	8.8124244806525	110.94431010338
0.38703966631228	12.582904013014	110.60896653579
0.38806358077342	15.324307755259	108.46687590483
0.38908749523456	16.231300941736	105.30806996322
0.39011140969571	15.023155128153	102.23409319383
0.39113532415685	12.033881725698	100.34061398671
0.39215923861799	8.1239977004496	100.39688947213
0.39318315307914	4.4369736824846	102.61573109874
0.39420706754028	2.0691563549610	106.58261488393
0.39523098200142	1.7483090453243	111.36713853969
0.39625489646257	3.6148814409557	115.78710157556
0.39727881092371	7.1715765574253	118.75041381022
0.39830272538485	11.418634994242	119.57610822703
0.39932663984600	15.138255394635	118.20026807003
0.40035055430714	17.247394340491	115.20480358904
