#Parameters = {xdip=0; ydip=0}
#"Frequency / GHz"	"Z [Re]"	"Z [Im]"
#-----------------------------------
0.0000000000000	0.00055300761772597	-7.3843814506611e-12
0.0010239144611436	0.0010968593195457	0.061787088331843
0.0020478289222872	0.0028506766925754	0.12311180926086
0.0030717433834308	0.0053375660041488	0.18307920431605
0.0040956578445743	0.0072151718322030	0.24172065964585
0.0051195723057179	0.0080605670776221	0.30033213543707
0.0061434867668615	0.0088838722448146	0.35946958715770
0.0071674012280051	0.010092922571332	0.41831113556077
0.0081913156891487	0.010857485820311	0.47663809898082
0.0092152301502923	0.011047953285490	0.53536383507547
0.010239144611436	0.011615545442242	0.59459100447050
0.011263059072579	0.012616814222150	0.65337689633959
0.012286973533723	0.013113198251292	0.71174239545341
0.013310887994867	0.013202343702135	0.77063937832133
0.014334802456010	0.013846714429548	0.82990567132920
0.015358716917154	0.014819513067826	0.88857965107257
0.016382631378297	0.015163554360596	0.94695824053320
0.017406545839441	0.015245824659295	1.0059935390809
0.018430460300585	0.016008647067749	1.0652498511884
0.019454374761728	0.016945973911887	1.1237990300025
0.020478289222872	0.017145480198574	1.1822174732141
0.021502203684015	0.017251042555268	1.2413977346125
0.022526118145159	0.018128765330083	1.3006286821133
0.023550032606302	0.018997872272248	1.3590741313038
0.024573947067446	0.019052643698150	1.4175832305082
0.025597861528590	0.019206072928289	1.4769270688011
0.026621775989733	0.020187262781818	1.5361298077710
0.027645690450877	0.020955375841617	1.5945079133940
0.028669604912020	0.020872534586890	1.6531654513741
0.029693519373164	0.021100518783460	1.7126908916866
0.030717433834308	0.022171050201476	1.7718667713952
0.031741348295451	0.022809479197217	1.8302217749723
0.032765262756595	0.022604703473777	1.8890854894088
0.033789177217738	0.022934982243505	1.9488055495491
0.034813091678882	0.024077427226046	2.0079579832384
0.035837006140025	0.024561553067424	2.0663397198137
0.036860920601169	0.024257770801689	2.1254649751002
0.037884835062313	0.024717059725232	2.1853871376290
0.038908749523456	0.025909950284944	2.2445222263956
0.039932663984600	0.026219288854582	2.3029857408085
0.040956578445743	0.025845510972002	2.3624246559386
0.041980492906887	0.026457729024106	2.4225514559697
0.043004407368031	0.027675120004160	2.4816793296430
0.044028321829174	0.027793477513228	2.5402850581405
0.045052236290318	0.027383694141145	2.6000863350756
0.046076150751461	0.028168498494524	2.6604166585023
0.047100065212605	0.029379968489036	2.7195532886607
0.048123979673749	0.029295939575685	2.7783675856369
0.049147894134892	0.028888395721163	2.8385767504244
0.050171808596036	0.029860327874833	2.8991074228747
0.051195723057179	0.031031596579823	2.9582763418267
0.052219637518323	0.030739338469760	3.0173717037395
0.053243551979466	0.030375804036433	3.0780311842121
0.054267466440610	0.031543391936329	3.1387585610075
0.055291380901754	0.032636854191223	3.1979926433329
0.056315295362897	0.032136712527717	3.2574481770457
0.057339209824041	0.031861790965857	3.3185978626129
0.058363124285184	0.033227041802190	3.3795198201966
0.059387038746328	0.034202758858566	3.4388630973057
0.060410953207472	0.033502061717150	3.4987648204607
0.061434867668615	0.033362395391787	3.5604425734302
0.062458782129759	0.034920091385898	3.6215606576660
0.063482696590902	0.035736564635930	3.6810705152725
0.064506611052046	0.034850360585145	3.7415123411440
0.065530525513189	0.034894254268518	3.8037552780984
0.066554439974333	0.036632062499515	3.8650771733813
0.067578354435477	0.037247596513718	3.9248262230853
0.068602268896620	0.036199268735914	3.9859104616018
0.069626183357764	0.036475645141970	4.0487562208101
0.070650097818907	0.038373526162471	4.1102988533298
0.071674012280051	0.038747213388430	4.1703778951532
0.072697926741195	0.037569179364633	4.2322170259880
0.073721841202338	0.038127061310081	4.2957061865843
0.074745755663482	0.040157405673396	4.3574996420115
0.075769670124625	0.040250742870293	4.4180211616424
0.076793584585769	0.038985612133816	4.4807400668106
0.077817499046912	0.039873949554427	4.5449190077285
0.078841413508056	0.042001863497764	4.6070108397446
0.079865327969200	0.041780159630615	4.6681130110173
0.080889242430343	0.040481371557641	4.7318521480173
0.081913156891487	0.041748336718192	4.7967774946559
0.082937071352630	0.043931778187781	4.8592392291694
0.083960985813774	0.043366105356856	4.9210923869631
0.084984900274918	0.042099755345655	4.9860131664181
0.086008814736061	0.043793337623600	5.0517578598605
0.087032729197205	0.045984081982148	5.1146928337835
0.088056643658348	0.045053522798744	5.1775075947815
0.089080558119492	0.043900301012182	5.2438000444252
0.090104472580635	0.046069157389614	5.3104623466167
0.091128387041779	0.048214427579549	5.3740170105796
0.092152301502923	0.046909513551416	5.4380559979693
0.093176215964066	0.045967869883348	5.5059497992081
0.094200130425210	0.048662683795288	5.5736659759514
0.095224044886353	0.050706907244259	5.6380463747030
0.096247959347497	0.049034231309042	5.7036427131072
0.097271873808641	0.048426240412722	5.7734252244306
0.098295788269784	0.051704083323261	5.8423887405542
0.099319702730928	0.053593129803125	5.9078840651524
0.10034361719207	0.051582631259444	5.9754682927162
0.10136753165321	0.051463061582575	6.0475118467304
0.10239144611436	0.055394683934786	6.1180029484569
0.10341536057550	0.057083144002796	6.1850220768353
0.10443927503665	0.054800359778277	6.2551645209927
0.10546318949779	0.055372373649151	6.3299698447166
0.10648710395893	0.060055418513015	6.4024026968267
0.10751101842008	0.061519720368516	6.4715332005857
0.10853493288122	0.059087709294842	6.5450139536410
0.10955884734236	0.060632443417091	6.6232827372843
0.11058276180351	0.066218709884412	6.6982835583824
0.11160667626465	0.067484460197732	6.7703888812670
0.11263059072579	0.065125323016656	6.8483142694604
0.11365450518694	0.068056603321450	6.9310727188722
0.11467841964808	0.074804835534918	7.0096163736896
0.11570233410923	0.076003533173292	7.0860085577823
0.11672624857037	0.074124644842613	7.1700199481059
0.11775016303151	0.079103423253639	7.2588420573783
0.11877407749266	0.087495239066206	7.3425010444653
0.11979799195380	0.088992544073130	7.4252587287879
0.12082190641494	0.088374959634626	7.5179227886353
0.12184582087609	0.096559148423692	7.6153576524678
0.12286973533723	0.10756727028603	7.7067911867754
0.12389364979837	0.11027766695319	7.7993939388667
0.12491756425952	0.11253511870708	7.9049910830325
0.12594147872066	0.12619406444662	8.0154445474851
0.12696539318180	0.14198416285540	8.1194325070934
0.12798930764295	0.14824070859139	8.2281220741546
0.12901322210409	0.15708300210213	8.3543612556330
0.13003713656524	0.18131130288561	8.4860602504111
0.13106105102638	0.20732888172908	8.6118821334866
0.13208496548752	0.22363692322775	8.7488674422148
0.13310887994867	0.24894702440614	8.9109839709692
0.13413279440981	0.29738789719745	9.0807577871867
0.13515670887095	0.34988820968880	9.2481270947912
0.13618062333210	0.39761334631890	9.4396957470318
0.13720453779324	0.47188949185673	9.6707178738634
0.13822845225438	0.59109897874655	9.9155305525272
0.13925236671553	0.73228715182231	10.168145160767
0.14027628117667	0.90210905385793	10.471229127669
0.14130019563781	1.1693319299099	10.835603264589
0.14232411009896	1.5790376809461	11.207558011209
0.14334802456010	2.1342570949760	11.563878015970
0.14437193902125	2.9285081001532	11.902601667339
0.14539585348239	4.1274445118808	12.022498870728
0.14641976794353	5.6244979923965	11.477635110266
0.14744368240468	6.8251566076229	10.013481059480
0.14846759686582	7.0541335335026	8.0244606646013
0.14949151132696	6.2213131580369	6.3369625256104
0.15051542578811	4.9013224981844	5.4812658503679
0.15153934024925	3.7287197167489	5.3354913514855
0.15256325471039	2.9005382735902	5.4871968188187
0.15358716917154	2.2965344059328	5.7079870058980
0.15461108363268	1.8287696909052	5.9792536752113
0.15563499809382	1.5030346646913	6.2761028089263
0.15665891255497	1.2860045788144	6.5333087398710
0.15768282701611	1.1057264819118	6.7476910923520
0.15870674147726	0.94797228903496	6.9619360845020
0.15973065593840	0.83912313677917	7.1736130141596
0.16075457039954	0.76536982612697	7.3510063226280
0.16177848486069	0.69030576719102	7.5036318637791
0.16280239932183	0.61833168901096	7.6617947783713
0.16382631378297	0.57266871862060	7.8181609061965
0.16485022824412	0.54164191275467	7.9501992649082
0.16587414270526	0.50162585773402	8.0691903636897
0.16689805716640	0.46193639511496	8.1965103489718
0.16792197162755	0.44050768186782	8.3221662000832
0.16894588608869	0.42553468427228	8.4294191642509
0.16996980054984	0.40030938817740	8.5301641886323
0.17099371501098	0.37584743536759	8.6398435701022
0.17201762947212	0.36559888585388	8.7472901006279
0.17304154393327	0.35757020717254	8.8401066487663
0.17406545839441	0.33973322155853	8.9303760604680
0.17508937285555	0.32369162982978	9.0292324737603
0.17611328731670	0.31926128408949	9.1250912706171
0.17713720177784	0.31447901772547	9.2090042115302
0.17816111623898	0.30085212966665	9.2929539937216
0.17918503070013	0.29003783109495	9.3847292666751
0.18020894516127	0.28886570117926	9.4727706137910
0.18123285962241	0.28563076457072	9.5509664071176
0.18225677408356	0.27467845359782	9.6309742931645
0.18328068854470	0.26739983301171	9.7178658604890
0.18430460300585	0.26812522896095	9.8003953248986
0.18532851746699	0.26559966411246	9.8748324318840
0.18635243192813	0.25651983127081	9.9523287382662
0.18737634638928	0.25178828454641	10.035693522964
0.18840026085042	0.25361869083735	10.114204288148
0.18942417531156	0.25136617886464	10.186153414414
0.19044808977271	0.24370816308273	10.262038149617
0.19147200423385	0.24089324162306	10.342760361650
0.19249591869499	0.24333573929645	10.418279856605
0.19351983315614	0.24113403740265	10.488609819945
0.19454374761728	0.23464163621877	10.563467749378
0.19556766207842	0.23332044954543	10.642140937395
0.19659157653957	0.23605413445670	10.715397501445
0.19761549100071	0.23379083959429	10.784713626314
0.19863940546186	0.22829995501857	10.858930162826
0.19966331992300	0.22815836197082	10.935976213966
0.20068723438414	0.23096367560588	11.007523047388
0.20171114884529	0.22859888685509	11.076271856967
0.20273506330643	0.22401241869660	11.150106566805
0.20375897776757	0.22481588980718	11.225828990350
0.20478289222872	0.22754122556033	11.296088667870
0.20580680668986	0.22507101077071	11.364597366545
0.20683072115100	0.22131871584788	11.438224601456
0.20785463561215	0.22287605801404	11.512856723562
0.20887855007329	0.22541586168470	11.582171889299
0.20990246453443	0.22286390216414	11.650689284984
0.21092637899558	0.21989660439215	11.724225244310
0.21195029345672	0.22204952760611	11.797949907133
0.21297420791787	0.22433058606904	11.866602156129
0.21399812237901	0.22173450473035	11.935318053195
0.21502203684015	0.21951165120064	12.008840290567
0.21604595130130	0.22212443321062	12.081809570900
0.21706986576244	0.22409894175566	12.150038501750
0.21809378022358	0.22150676837440	12.219100096299
0.21911769468473	0.21999464207230	12.292659897399
0.22014160914587	0.22295197119481	12.365003486256
0.22116552360701	0.22459313118670	12.433012273430
0.22218943806816	0.22205558760027	12.502529300696
0.22321335252930	0.22121714511215	12.576159447637
0.22423726699045	0.22441481178320	12.647996858642
0.22526118145159	0.22571256320280	12.715967410760
0.22628509591273	0.22328553608825	12.786025366101
0.22730901037388	0.22308633985289	12.859746575741
0.22833292483502	0.22643434772549	12.931186688163
0.22935683929616	0.22739205189958	12.999277424413
0.23038075375731	0.22512889596921	13.069938924412
0.23140466821845	0.22552962293594	13.143765993765
0.23242858267959	0.22894787328393	13.214916008699
0.23345249714074	0.22958221134984	13.283271055667
0.23447641160188	0.22753751998966	13.354582248886
0.23550032606302	0.22849849276810	13.428525058318
0.23652424052417	0.23191716075650	13.499487382625
0.23754815498531	0.23225283606795	13.568234796788
0.23857206944646	0.23047553617102	13.640228823432
0.23959598390760	0.23195291487563	13.714299488844
0.24061989836874	0.23531251031528	13.785178950304
0.24164381282989	0.23538484982579	13.854436303578
0.24266772729103	0.23392256782322	13.927136358084
0.24369164175217	0.23587272819768	14.001348407192
0.24471555621332	0.23912516162998	14.072248337031
0.24573947067446	0.23897664385103	14.142119497637
0.24676338513560	0.23787017415846	14.215539087919
0.24778729959675	0.24024476276353	14.289910827191
0.24881121405789	0.24334993230341	14.360938755040
0.24983512851903	0.24302994653933	14.431521528175
0.25085904298018	0.24231807909628	14.505671057907
0.25188295744132	0.24507156428330	14.580226522803
0.25290687190247	0.24800158002253	14.651489483054
0.25393078636361	0.24756464276869	14.722870772243
0.25495470082475	0.24727974592284	14.797756729859
0.25597861528590	0.25036622660808	14.872527894643
0.25700252974704	0.25310380568953	14.944135394157
0.25802644420818	0.25260902140944	15.016394596834
0.25905035866933	0.25277815933863	15.092022934311
0.26007427313047	0.25615371557776	15.167051556577
0.26109818759161	0.25869396882862	15.239115742993
0.26212210205276	0.25820569099349	15.312324556521
0.26314601651390	0.25885060001184	15.388700436364
0.26416993097504	0.26247181204166	15.464037941309
0.26519384543619	0.26481931174983	15.536675971832
0.26621775989733	0.26440649497298	15.610904528394
0.26724167435848	0.26554861921587	15.688038066194
0.26826558881962	0.26938013204444	15.763745345606
0.26928950328076	0.27155225478639	15.837074168171
0.27031341774191	0.27128591173476	15.912387162640
0.27133733220305	0.27294249299983	15.990294428665
0.27236124666419	0.27695571678787	16.066445686090
0.27338516112534	0.27898408553456	16.140585645390
0.27440907558648	0.27894002239284	16.217044275200
0.27543299004762	0.28112623657353	16.295747223719
0.27645690450877	0.28529878081786	16.372429648895
0.27748081896991	0.28722698965461	16.447507752668
0.27850473343106	0.28748715117870	16.525177240256
0.27952864789220	0.29022431066581	16.604709636287
0.28055256235334	0.29455037935783	16.682021708870
0.28157647681449	0.29643886723911	16.758164022636
0.28260039127563	0.29708876746728	16.837107230049
0.28362430573677	0.30039853389439	16.917513908410
0.28464822019792	0.30488431775449	16.995569875430
0.28567213465906	0.30680910619071	17.072909236456
0.28669604912020	0.30794100312948	17.153195341930
0.28771996358135	0.31185256399472	17.234539089082
0.28874387804249	0.31652523017408	17.313472608310
0.28976779250363	0.31858712463968	17.392149390164
0.29079170696478	0.32030864156603	17.473851501396
0.29181562142592	0.32486386981723	17.556207328523
0.29283953588707	0.32976999221510	17.636166657222
0.29386345034821	0.33208935386627	17.716331796029
0.29488736480935	0.33452369408688	17.799538268365
0.29591127927050	0.33978748197721	17.883004464991
0.29693519373164	0.34500790453944	17.964155625979
0.29795910819278	0.34773583958369	18.045967581901
0.29898302265393	0.35102775651299	18.130779377668
0.30000693711507	0.35709262099857	18.215478398498
0.30103085157621	0.36274868504285	18.298008382159
0.30205476603736	0.36607530754963	18.381636829969
0.30307868049850	0.37040068856304	18.468170745734
0.30410259495964	0.37739651090291	18.554252197213
0.30512650942079	0.38365988509732	18.638373484505
0.30615042388193	0.38782682797247	18.724006266581
0.30717433834308	0.39341013718979	18.812401479420
0.30819825280422	0.40152424088200	18.900044850686
0.30922216726536	0.40863567133601	18.985995846017
0.31024608172651	0.41395443781862	19.073841325828
0.31126999618765	0.42109118509475	19.164263267103
0.31229391064879	0.43059524164554	19.253678478877
0.31331782510994	0.43889080388214	19.341719310131
0.31434173957108	0.44576515898053	19.432002234257
0.31536565403222	0.45484336045965	19.524643810992
0.31638956849337	0.46611973669426	19.616078766067
0.31741348295451	0.47606695280350	19.706502239224
0.31843739741565	0.48504117474526	19.799472459759
0.31946131187680	0.49659923978530	19.894553975503
0.32048522633794	0.51020100891514	19.988283568823
0.32150914079909	0.52245510507964	20.081399090498
0.32253305526023	0.53426894316714	20.177318570214
0.32355696972137	0.54905724510441	20.275079987364
0.32458088418252	0.56578192198134	20.371399817390
0.32560479864366	0.58127332342334	20.467524538576
0.32662871310480	0.59696442406364	20.566653216219
0.32765262756595	0.61606373287100	20.667331187097
0.32867654202709	0.63708681047401	20.766522340832
0.32970045648823	0.65716860192891	20.865932720582
0.33072437094938	0.67823504823056	20.968466692468
0.33174828541052	0.70323639342429	21.072217842087
0.33277219987167	0.73031084945224	21.174453936474
0.33379611433281	0.75698330464879	21.277275519619
0.33482002879395	0.78564221005453	21.383214007033
0.33584394325510	0.81894644212094	21.489946904300
0.33686785771624	0.85474458602504	21.595077888163
0.33789177217738	0.89104037920084	21.701011047016
0.33891568663853	0.93066271253248	21.809812489892
0.33993960109967	0.97597296485418	21.918754175093
0.34096351556081	1.0246402130315	22.025755943647
0.34198743002196	1.0752388928395	22.133377727630
0.34301134448310	1.1310230831616	22.243078339440
0.34403525894424	1.1940750710167	22.351664296181
0.34505917340539	1.2620104860508	22.457239762230
0.34608308786653	1.3340525502036	22.562234729853
0.34710700232768	1.4138329268988	22.667202635725
0.34813091678882	1.5031216668418	22.768226152458
0.34915483124996	1.5995012632828	22.863206747431
0.35017874571111	1.7027324055557	22.953860716693
0.35120266017225	1.8164890959649	23.039198312369
0.35222657463339	1.9417607066282	23.113923090332
0.35325048909454	2.0754401216287	23.174919478169
0.35427440355568	2.2167093768070	23.222237950270
0.35529831801682	2.3675501272441	23.252518750163
0.35632223247797	2.5258287925102	23.258594981315
0.35734614693911	2.6846907777636	23.236346400315
0.35837006140025	2.8388032327954	23.185162119599
0.35939397586140	2.9838850527955	23.102114950237
0.36041789032254	3.1102915271483	22.983464290052
0.36144180478369	3.2044308726742	22.832228571768
0.36246571924483	3.2565145252910	22.658023753762
0.36348963370597	3.2611734751542	22.470865227672
0.36451354816712	3.2131636524105	22.281789184536
0.36553746262826	3.1105495018119	22.107085547480
0.36656137708940	2.9610412119406	21.963696829602
0.36758529155055	2.7785428128607	21.860813075928
0.36860920601169	2.5750006824697	21.801011173619
0.36963312047283	2.3607171095150	21.786106423589
0.37065703493398	2.1482788410600	21.815315687390
0.37168094939512	1.9485600667363	21.881174837452
0.37270486385627	1.7651786802513	21.974270691694
0.37372877831741	1.5984154644313	22.089601848445
0.37475269277855	1.4509837210998	22.223507908405
0.37577660723970	1.3247581701965	22.368958596990
0.37680052170084	1.2164682385579	22.519670089930
0.37782443616198	1.1223306854680	22.674664882286
0.37884835062313	1.0427777325379	22.833704800863
0.37987226508427	0.97803285600898	22.992848312932
0.38089617954541	0.92410361525469	23.149046266045
0.38192009400656	0.87771101224365	23.303923675755
0.38294400846770	0.84000719971459	23.458658484223
0.38396792292884	0.81141883104688	23.610408014999
0.38499183738999	0.78834716637018	23.757528651082
0.38601575185113	0.76854395962021	23.902608595897
0.38703966631228	0.75395370929260	24.046939721676
0.38806358077342	0.74510437249771	24.187856274606
0.38908749523456	0.73867806225045	24.324399483017
0.39011140969571	0.73325848545850	24.459493670328
0.39113532415685	0.73127875320822	24.594106776768
0.39215923861799	0.73311929942183	24.725515998717
0.39318315307914	0.73560398607078	24.853248003298
0.39420706754028	0.73798065349810	24.980337116816
